[2024-Mar-07 22:43:07] [debug] --------------------------------------------------------------------------------
[2024-Mar-07 22:43:07] [debug] nrfjprog --recover --log 
[2024-Mar-07 22:43:07] [debug] nrfjprog version 10.24.0 external
[2024-Mar-07 22:43:07] [debug] --------------------------------------------------------------------------------
[2024-Mar-07 22:43:07] [ info] Load library at /opt/nrf5x-command-line-tools/lib/libnrfjprogdll.so.
[2024-Mar-07 22:43:07] [ info] Library loaded, loading member functions.
[2024-Mar-07 22:43:07] [ info] Member functions succesfully loaded.
[2024-Mar-07 22:43:07] [debug] [ Client] - open
[2024-Mar-07 22:43:07] [debug] [ Client] - start
[2024-Mar-07 22:43:07] [ info] [ Client] - stdout: Jlinkarm nRF Worker ready. Handling sequence 56a33ae3-8568-43a3-afa9-cd1da94c2b64.
[2024-Mar-07 22:43:07] [debug] [SeggerBackend] - Logger sink registered in Segger backend logger
[2024-Mar-07 22:43:07] [debug] [  JLink] - Logger sink registered in JLink logger
[2024-Mar-07 22:43:07] [debug] [  nRFXX] - open
[2024-Mar-07 22:43:07] [debug] [  nRFXX] - just_check_family
[2024-Mar-07 22:43:07] [debug] [SeggerBackend] - open_dll
[2024-Mar-07 22:43:07] [debug] [SeggerBackend] - No J-Link DLL path was provided. Attempting to auto detect.
[2024-Mar-07 22:43:07] [trace] [ Client] - Command open executed for 6 milliseconds with result 0
[2024-Mar-07 22:43:07] [debug] [ Client] - config
[2024-Mar-07 22:43:07] [trace] [ Client] - Command config executed for 2 milliseconds with result 0
[2024-Mar-07 22:43:07] [debug] [ Client] - enum_emu_snr
[2024-Mar-07 22:43:07] [ info] [SeggerBackend] - Load library at /opt/SEGGER/JLink/libjlinkarm.so.7.94.13.
[2024-Mar-07 22:43:07] [ info] [SeggerBackend] - Library loaded, loading member functions.
[2024-Mar-07 22:43:07] [ info] [SeggerBackend] - Member functions succesfully loaded.
[2024-Mar-07 22:43:07] [debug] [SeggerBackend] - Set batch mode
[2024-Mar-07 22:43:07] [debug] [SeggerBackend] - dll_version
[2024-Mar-07 22:43:07] [ info] [SeggerBackend] - Segger dll version 7.94.m loaded.
[2024-Mar-07 22:43:07] [trace] [ Worker] - Command open executed for 4 milliseconds with result 0
[2024-Mar-07 22:43:07] [debug] [  nRFXX] - config
[2024-Mar-07 22:43:07] [debug] [SeggerBackend] - enum_emu_snr
[2024-Mar-07 22:43:07] [trace] [ Worker] - Command config executed for 2 milliseconds with result 0
[2024-Mar-07 22:43:07] [debug] [  nRFXX] - enum_emu_con_info
[2024-Mar-07 22:43:07] [debug] [SeggerBackend] - is_connected_to_emu
[2024-Mar-07 22:43:07] [debug] [SeggerBackend] - enum_emu_con_info
[2024-Mar-07 22:43:07] [trace] [ Client] - Command enum_emu_con_info executed for 3 milliseconds with result 0
[2024-Mar-07 22:43:07] [debug] [ Client] - connect_to_emu_with_snr
[2024-Mar-07 22:43:07] [debug] [SeggerBackend] - is_connected_to_emu
[2024-Mar-07 22:43:07] [trace] [ Worker] - Command enum_emu_con_info executed for 3 milliseconds with result 0
[2024-Mar-07 22:43:07] [debug] [  nRFXX] - connect_to_emu_with_snr
[2024-Mar-07 22:43:07] [debug] [SeggerBackend] - is_connected_to_emu
[2024-Mar-07 22:43:07] [debug] [SeggerBackend] - connect_to_emu_with_snr
[2024-Mar-07 22:43:07] [debug] [SeggerBackend] - is_connected_to_emu
[2024-Mar-07 22:43:07] [debug] [SeggerBackend] - ---just_enum_emu_snr
[2024-Mar-07 22:43:07] [debug] [SeggerBackend] - ---just_get_num_emus
[2024-Mar-07 22:43:07] [debug] [SeggerBackend] - ---just_connect_to_emu_with_snr
[2024-Mar-07 22:43:07] [debug] [SeggerBackend] - ---just_connect_to_emu_without_snr
[2024-Mar-07 22:43:07] [debug] [SeggerBackend] - Segger logging enabled.
[2024-Mar-07 22:43:07] [trace] [  JLink] - Firmware: J-Link OB-nRF5340-NordicSemi compiled Oct 30 2023 12:13:06
[2024-Mar-07 22:43:07] [trace] [  JLink] - Firmware: J-Link OB-nRF5340-NordicSemi compiled Oct 30 2023 12:13:06
[2024-Mar-07 22:43:07] [trace] [  JLink] - Hardware: V1.00
[2024-Mar-07 22:43:07] [trace] [  JLink] - S/N: 1050205916
[2024-Mar-07 22:43:07] [trace] [  JLink] - OEM: SEGGER
[2024-Mar-07 22:43:07] [trace] [  JLink] - Feature(s): RDI, FlashBP, FlashDL, JFlash, GDB
[2024-Mar-07 22:43:07] [trace] [  JLink] - Bootloader: 2021 May 18
[2024-Mar-07 22:43:07] [trace] [  JLink] - USB speed mode: Full speed (12 MBit/s)
[2024-Mar-07 22:43:07] [trace] [  JLink] - TELNET listener socket opened on port 19021
[2024-Mar-07 22:43:07] [trace] [  JLink] - WEBSRV WEBSRV_Init(): Starting webserver thread(s)
[2024-Mar-07 22:43:07] [trace] [  JLink] - WEBSRV Webserver running on local port 19080
[2024-Mar-07 22:43:07] [trace] [  JLink] - Looking for J-Link GUI Server exe at: /opt/SEGGER/JLink/JLinkGUIServerExe 
[2024-Mar-07 22:43:07] [trace] [  JLink] - Forking J-Link GUI Server: /opt/SEGGER/JLink/JLinkGUIServerExe 
[2024-Mar-07 22:43:07] [trace] [ Client] - Command connect_to_emu_with_snr executed for 66 milliseconds with result 0
[2024-Mar-07 22:43:07] [debug] [ Client] - read_connected_emu_snr
[2024-Mar-07 22:43:07] [trace] [ Client] - Command read_connected_emu_snr executed for 0 milliseconds with result 0
[2024-Mar-07 22:43:07] [debug] [ Client] - read_device_family
[2024-Mar-07 22:43:07] [trace] [ Client] - Command read_device_family executed for 0 milliseconds with result 0
[2024-Mar-07 22:43:07] [debug] [ Client] - select_family
[2024-Mar-07 22:43:07] [trace] [ Client] - Command select_family executed for 0 milliseconds with result 0
[2024-Mar-07 22:43:07] [debug] [ Client] - recover
[2024-Mar-07 22:43:07] [trace] [  JLink] - J-Link GUI Server info: "J-Link GUI server V7.94m " 
[2024-Mar-07 22:43:07] [trace] [  JLink] - - 37.387ms returns "O.K."  
[2024-Mar-07 22:43:07] [trace] [  JLink] - JLINK_HasError()  
[2024-Mar-07 22:43:07] [trace] [  JLink] - JLINK_Lock()  
[2024-Mar-07 22:43:07] [trace] [  JLink] - JLINK_ExecCommand("SetRestartOnClose = 0", ...).   
[2024-Mar-07 22:43:07] [trace] [  JLink] - - 0.003ms returns 0x01  
[2024-Mar-07 22:43:07] [trace] [  JLink] - JLINK_HasError()  
[2024-Mar-07 22:43:07] [trace] [  JLink] - JLINK_ExecCommand("DisableFlashDL", ...).   
[2024-Mar-07 22:43:07] [trace] [  JLink] - - 0.002ms returns 0x00  
[2024-Mar-07 22:43:07] [trace] [  JLink] - JLINK_HasError()  
[2024-Mar-07 22:43:07] [trace] [  JLink] - JLINK_ExecCommand("ExcludeFlashCacheRange 0x0-0xFFFFFFFF", ...).   
[2024-Mar-07 22:43:07] [trace] [  JLink] - - 0.001ms returns 0x00  
[2024-Mar-07 22:43:07] [trace] [  JLink] - JLINK_HasError()  
[2024-Mar-07 22:43:07] [trace] [  JLink] - JLINK_SetHookUnsecureDialog  
[2024-Mar-07 22:43:07] [trace] [  JLink] - JLINK_SetHookUnsecureDialog(...)
[2024-Mar-07 22:43:07] [trace] [  JLink] - - 0.011ms returns 0  
[2024-Mar-07 22:43:07] [trace] [  JLink] - JLINK_HasError()  
[2024-Mar-07 22:43:07] [trace] [  JLink] - JLINK_TIF_Select(JLINKARM_TIF_SWD)  
[2024-Mar-07 22:43:07] [trace] [  JLink] - - 0.364ms returns 0x00  
[2024-Mar-07 22:43:07] [trace] [  JLink] - JLINK_HasError()  
[2024-Mar-07 22:43:07] [trace] [  JLink] - JLINK_GetSpeedInfo()  
[2024-Mar-07 22:43:07] [trace] [  JLink] - 128000000 Hz / n, n >= 64
[2024-Mar-07 22:43:07] [trace] [  JLink] - - 0.010ms  
[2024-Mar-07 22:43:07] [trace] [  JLink] - JLINK_HasError()  
[2024-Mar-07 22:43:07] [debug] [SeggerBackend] - Connected emulator supports SWD speeds up to 2000kHz
[2024-Mar-07 22:43:07] [trace] [  JLink] - JLINK_SetSpeed(2000)  
[2024-Mar-07 22:43:07] [trace] [  JLink] - - 0.032ms  
[2024-Mar-07 22:43:07] [trace] [  JLink] - JLINK_HasError()  
[2024-Mar-07 22:43:07] [trace] [  JLink] - JLINK_GetSpeed()  
[2024-Mar-07 22:43:07] [trace] [  JLink] - - 0.003ms returns 2000  
[2024-Mar-07 22:43:07] [trace] [  JLink] - JLINK_HasError()  
[2024-Mar-07 22:43:07] [debug] [SeggerBackend] - SWD clock set to 2000kHz
[2024-Mar-07 22:43:07] [trace] [  JLink] - JLINK_GetSN()  
[2024-Mar-07 22:43:07] [trace] [  JLink] - - 0.002ms returns 1050205916  
[2024-Mar-07 22:43:07] [trace] [  JLink] - JLINK_HasError()  
[2024-Mar-07 22:43:07] [trace] [  JLink] - - 0.004ms  
[2024-Mar-07 22:43:07] [debug] [  nRFXX] - read_device_family
[2024-Mar-07 22:43:07] [debug] [  nRFXX] - read_device_family
[2024-Mar-07 22:43:07] [debug] [SeggerBackend] - is_connected_to_emu
[2024-Mar-07 22:43:07] [trace] [  JLink] - JLINK_IsOpen()  
[2024-Mar-07 22:43:07] [trace] [  JLink] - - 0.002ms returns 0x01  
[2024-Mar-07 22:43:07] [trace] [  JLink] - JLINK_HasError()  
[2024-Mar-07 22:43:07] [trace] [  JLink] - JLINK_Lock()  
[2024-Mar-07 22:43:07] [debug] [SeggerBackend] - is_connected_to_emu
[2024-Mar-07 22:43:07] [debug] [SeggerBackend] - read_debug_port_idr
[2024-Mar-07 22:43:07] [debug] [SeggerBackend] - read_debug_port_register
[2024-Mar-07 22:43:07] [debug] [SeggerBackend] - ---just_read_debug_port_register
[2024-Mar-07 22:43:07] [debug] [SeggerBackend] - coresight_configure
[2024-Mar-07 22:43:07] [trace] [  JLink] - JLINK_GetHWStatus(...)  
[2024-Mar-07 22:43:07] [trace] [  JLink] - - 0.085ms returns 0  
[2024-Mar-07 22:43:07] [trace] [  JLink] - JLINK_HasError()  
[2024-Mar-07 22:43:07] [trace] [  JLink] - JLINK_CORESIGHT_Configure()  
[2024-Mar-07 22:43:07] [trace] [  JLink] - - 0.434ms returns 0  
[2024-Mar-07 22:43:07] [trace] [  JLink] - JLINK_HasError()  
[2024-Mar-07 22:43:07] [debug] [SeggerBackend] - read_debug_port_idr
[2024-Mar-07 22:43:07] [debug] [SeggerBackend] - read_debug_port_register
[2024-Mar-07 22:43:07] [debug] [SeggerBackend] - ---just_read_debug_port_register
[2024-Mar-07 22:43:07] [debug] [SeggerBackend] - ---just_select_debug_port_register
[2024-Mar-07 22:43:07] [debug] [SeggerBackend] - Select AP 255, DP Bank 0, AP Bank 255
[2024-Mar-07 22:43:07] [trace] [  JLink] - JLINK_CORESIGHT_WriteAPDPReg(DP reg 0x02, 0x00000000)  
[2024-Mar-07 22:43:07] [trace] [  JLink] - - 0.199ms returns 0  
[2024-Mar-07 22:43:07] [trace] [  JLink] - JLINK_HasError()  
[2024-Mar-07 22:43:07] [trace] [  JLink] - JLINK_CORESIGHT_ReadAPDPReg(DP reg 0x00)  
[2024-Mar-07 22:43:07] [trace] [  JLink] - Value=0x2BA01477
[2024-Mar-07 22:43:07] [trace] [  JLink] - - 0.184ms returns 0  
[2024-Mar-07 22:43:07] [trace] [  JLink] - JLINK_HasError()  
[2024-Mar-07 22:43:07] [debug] [SeggerBackend] - ---just_select_debug_port_register
[2024-Mar-07 22:43:07] [trace] [  JLink] - JLINK_CORESIGHT_ReadAPDPReg(DP reg 0x00)  
[2024-Mar-07 22:43:07] [trace] [  JLink] - Value=0x2BA01477
[2024-Mar-07 22:43:07] [trace] [  JLink] - - 0.189ms returns 0  
[2024-Mar-07 22:43:07] [trace] [  JLink] - JLINK_HasError()  
[2024-Mar-07 22:43:07] [ info] [  nRFXX] - Discovered device from family NRF52.
[2024-Mar-07 22:43:07] [trace] [  JLink] - - 0.011ms  
[2024-Mar-07 22:43:07] [debug] [SeggerBackend] - set_core_data
[2024-Mar-07 22:43:07] [debug] [SeggerBackend] - Set core data:
[2024-Mar-07 22:43:07] [debug] [SeggerBackend] -   Device ID: nRF52
[2024-Mar-07 22:43:07] [debug] [SeggerBackend] -   Expected core: 234881279
[2024-Mar-07 22:43:07] [debug] [SeggerBackend] -   Existing Expected core: 4294967295
[2024-Mar-07 22:43:07] [debug] [SeggerBackend] -   Coprocessor: APPLICATION
[2024-Mar-07 22:43:07] [debug] [SeggerBackend] -   AHB AP index: 0
[2024-Mar-07 22:43:07] [debug] [SeggerBackend] -   Core base address: 4294967295
[2024-Mar-07 22:43:07] [debug] [SeggerBackend] - ---set_coresight_ahb_ap_index
[2024-Mar-07 22:43:07] [trace] [  JLink] - JLINK_ExecCommand("CORESIGHT_SetIndexAHBAPToUse = 0", ...).   
[2024-Mar-07 22:43:07] [trace] [  JLink] - - 0.002ms returns 0x00  
[2024-Mar-07 22:43:07] [trace] [  JLink] - JLINK_HasError()  
[2024-Mar-07 22:43:07] [trace] [  JLink] - JLINK_ExecCommand("device = nRF52", ...).   
[2024-Mar-07 22:43:07] [trace] [  JLink] - Device "NRF52" selected.
[2024-Mar-07 22:43:07] [trace] [  JLink] - Device "NRF52" selected.
[2024-Mar-07 22:43:07] [trace] [  JLink] - - 1.529ms returns 0x00  
[2024-Mar-07 22:43:07] [trace] [  JLink] - JLINK_HasError()  
[2024-Mar-07 22:43:07] [trace] [ Worker] - Command connect_to_emu_with_snr executed for 66 milliseconds with result 0
[2024-Mar-07 22:43:07] [debug] [  nRF52] - read_connected_emu_snr
[2024-Mar-07 22:43:07] [debug] [SeggerBackend] - is_connected_to_emu
[2024-Mar-07 22:43:07] [trace] [  JLink] - JLINK_IsOpen()  
[2024-Mar-07 22:43:07] [trace] [  JLink] - - 0.007ms returns 0x01  
[2024-Mar-07 22:43:07] [trace] [  JLink] - JLINK_HasError()  
[2024-Mar-07 22:43:07] [trace] [  JLink] - JLINK_Lock()  
[2024-Mar-07 22:43:07] [debug] [SeggerBackend] - read_connected_emu_snr
[2024-Mar-07 22:43:07] [trace] [  JLink] - - 0.007ms  
[2024-Mar-07 22:43:07] [trace] [ Worker] - Command read_connected_emu_snr executed for 0 milliseconds with result 0
[2024-Mar-07 22:43:07] [debug] [  nRF52] - read_device_family
[2024-Mar-07 22:43:07] [trace] [ Worker] - Command read_device_family executed for 0 milliseconds with result 0
[2024-Mar-07 22:43:07] [debug] [SeggerBackend] - set_core_data
[2024-Mar-07 22:43:07] [debug] [SeggerBackend] - Set core data:
[2024-Mar-07 22:43:07] [debug] [SeggerBackend] -   Device ID: nRF52
[2024-Mar-07 22:43:07] [debug] [SeggerBackend] -   Expected core: 234881279
[2024-Mar-07 22:43:07] [debug] [SeggerBackend] -   Existing Expected core: 234881279
[2024-Mar-07 22:43:07] [debug] [SeggerBackend] -   Coprocessor: APPLICATION
[2024-Mar-07 22:43:07] [debug] [SeggerBackend] -   AHB AP index: 0
[2024-Mar-07 22:43:07] [debug] [SeggerBackend] -   Core base address: 4294967295
[2024-Mar-07 22:43:07] [trace] [ Worker] - Command select_family executed for 0 milliseconds with result 0
[2024-Mar-07 22:43:07] [debug] [  nRF52] - recover
[2024-Mar-07 22:43:07] [debug] [SeggerBackend] - is_connected_to_emu
[2024-Mar-07 22:43:07] [trace] [  JLink] - JLINK_IsOpen()  
[2024-Mar-07 22:43:07] [trace] [  JLink] - - 0.007ms returns 0x01  
[2024-Mar-07 22:43:07] [trace] [  JLink] - JLINK_HasError()  
[2024-Mar-07 22:43:07] [trace] [  JLink] - JLINK_Lock()  
[2024-Mar-07 22:43:07] [debug] [SeggerBackend] - is_connected_to_emu
[2024-Mar-07 22:43:07] [debug] [  nRF52] - Just_recover
[2024-Mar-07 22:43:07] [debug] [  nRF52] - Just_is_ctrl_ap_available
[2024-Mar-07 22:43:07] [debug] [SeggerBackend] - read_access_port_register
[2024-Mar-07 22:43:07] [debug] [SeggerBackend] - ---just_read_access_port_register
[2024-Mar-07 22:43:07] [debug] [SeggerBackend] - ---just_is_debug_region_powered
[2024-Mar-07 22:43:07] [debug] [SeggerBackend] - ---just_read_debug_port_register
[2024-Mar-07 22:43:07] [debug] [SeggerBackend] - ---just_select_debug_port_register
[2024-Mar-07 22:43:07] [debug] [SeggerBackend] - Select AP 255, DP Bank 0, AP Bank 255
[2024-Mar-07 22:43:07] [trace] [  JLink] - JLINK_CORESIGHT_WriteAPDPReg(DP reg 0x02, 0x00000000)  
[2024-Mar-07 22:43:07] [trace] [  JLink] - - 0.172ms returns 0  
[2024-Mar-07 22:43:07] [trace] [  JLink] - JLINK_HasError()  
[2024-Mar-07 22:43:07] [trace] [  JLink] - JLINK_CORESIGHT_ReadAPDPReg(DP reg 0x01)  
[2024-Mar-07 22:43:07] [trace] [  JLink] - Value=0xF0000040
[2024-Mar-07 22:43:07] [trace] [  JLink] - - 0.170ms returns 0  
[2024-Mar-07 22:43:07] [trace] [  JLink] - JLINK_HasError()  
[2024-Mar-07 22:43:07] [debug] [SeggerBackend] - ---just_select_access_port_register
[2024-Mar-07 22:43:07] [debug] [SeggerBackend] - Select AP 1, DP Bank 0, AP Bank 15
[2024-Mar-07 22:43:07] [trace] [  JLink] - JLINK_CORESIGHT_WriteAPDPReg(DP reg 0x02, 0x010000F0)  
[2024-Mar-07 22:43:07] [trace] [  JLink] - - 0.153ms returns 0  
[2024-Mar-07 22:43:07] [trace] [  JLink] - JLINK_HasError()  
[2024-Mar-07 22:43:07] [trace] [  JLink] - JLINK_CORESIGHT_ReadAPDPReg(AP reg 0x03)  
[2024-Mar-07 22:43:07] [trace] [  JLink] - Value=0x02880000
[2024-Mar-07 22:43:07] [trace] [  JLink] - - 0.216ms returns 0  
[2024-Mar-07 22:43:07] [trace] [  JLink] - JLINK_HasError()  
[2024-Mar-07 22:43:07] [debug] [SeggerBackend] - read_access_port_register
[2024-Mar-07 22:43:07] [debug] [SeggerBackend] - ---just_read_access_port_register
[2024-Mar-07 22:43:07] [debug] [SeggerBackend] - ---just_select_access_port_register
[2024-Mar-07 22:43:07] [trace] [  JLink] - JLINK_CORESIGHT_ReadAPDPReg(AP reg 0x03)  
[2024-Mar-07 22:43:07] [trace] [  JLink] - Value=0x02880000
[2024-Mar-07 22:43:07] [trace] [  JLink] - - 0.207ms returns 0  
[2024-Mar-07 22:43:07] [trace] [  JLink] - JLINK_HasError()  
[2024-Mar-07 22:43:07] [debug] [SeggerBackend] - read_access_port_register
[2024-Mar-07 22:43:07] [debug] [SeggerBackend] - ---just_read_access_port_register
[2024-Mar-07 22:43:07] [debug] [SeggerBackend] - ---just_select_access_port_register
[2024-Mar-07 22:43:07] [trace] [  JLink] - JLINK_CORESIGHT_ReadAPDPReg(AP reg 0x03)  
[2024-Mar-07 22:43:07] [trace] [  JLink] - Value=0x02880000
[2024-Mar-07 22:43:07] [trace] [  JLink] - - 0.192ms returns 0  
[2024-Mar-07 22:43:07] [trace] [  JLink] - JLINK_HasError()  
[2024-Mar-07 22:43:07] [debug] [SeggerBackend] - read_access_port_register
[2024-Mar-07 22:43:07] [debug] [SeggerBackend] - ---just_read_access_port_register
[2024-Mar-07 22:43:07] [debug] [SeggerBackend] - ---just_select_access_port_register
[2024-Mar-07 22:43:07] [trace] [  JLink] - JLINK_CORESIGHT_ReadAPDPReg(AP reg 0x03)  
[2024-Mar-07 22:43:07] [trace] [  JLink] - Value=0x02880000
[2024-Mar-07 22:43:07] [trace] [  JLink] - - 0.239ms returns 0  
[2024-Mar-07 22:43:07] [trace] [  JLink] - JLINK_HasError()  
[2024-Mar-07 22:43:07] [debug] [SeggerBackend] - write_access_port_register
[2024-Mar-07 22:43:07] [debug] [SeggerBackend] - ---just_write_access_port_register
[2024-Mar-07 22:43:07] [debug] [SeggerBackend] - ---just_select_access_port_register
[2024-Mar-07 22:43:07] [debug] [SeggerBackend] - Select AP 1, DP Bank 0, AP Bank 0
[2024-Mar-07 22:43:07] [trace] [  JLink] - JLINK_CORESIGHT_WriteAPDPReg(DP reg 0x02, 0x01000000)  
[2024-Mar-07 22:43:07] [trace] [  JLink] - - 0.163ms returns 0  
[2024-Mar-07 22:43:07] [trace] [  JLink] - JLINK_HasError()  
[2024-Mar-07 22:43:07] [trace] [  JLink] - JLINK_CORESIGHT_WriteAPDPReg(AP reg 0x01, 0x00000001)  
[2024-Mar-07 22:43:07] [trace] [  JLink] - - 0.167ms returns 0  
[2024-Mar-07 22:43:07] [trace] [  JLink] - JLINK_HasError()  
[2024-Mar-07 22:43:07] [debug] [SeggerBackend] - read_access_port_register
[2024-Mar-07 22:43:07] [debug] [SeggerBackend] - ---just_read_access_port_register
[2024-Mar-07 22:43:07] [debug] [SeggerBackend] - ---just_select_access_port_register
[2024-Mar-07 22:43:07] [trace] [  JLink] - JLINK_CORESIGHT_ReadAPDPReg(AP reg 0x02)  
[2024-Mar-07 22:43:07] [trace] [  JLink] - Value=0x00000001
[2024-Mar-07 22:43:07] [trace] [  JLink] - - 0.332ms returns 0  
[2024-Mar-07 22:43:07] [trace] [  JLink] - JLINK_HasError()  
[2024-Mar-07 22:43:08] [debug] [SeggerBackend] - read_access_port_register
[2024-Mar-07 22:43:08] [debug] [SeggerBackend] - ---just_read_access_port_register
[2024-Mar-07 22:43:08] [debug] [SeggerBackend] - ---just_select_access_port_register
[2024-Mar-07 22:43:08] [trace] [  JLink] - JLINK_CORESIGHT_ReadAPDPReg(AP reg 0x02)  
[2024-Mar-07 22:43:08] [trace] [  JLink] - Value=0x00000000
[2024-Mar-07 22:43:08] [trace] [  JLink] - - 0.325ms returns 0  
[2024-Mar-07 22:43:08] [trace] [  JLink] - JLINK_HasError()  
[2024-Mar-07 22:43:08] [debug] [  nRF52] - Just_debug_reset
[2024-Mar-07 22:43:08] [debug] [  nRF52] - Just_is_ctrl_ap_available
[2024-Mar-07 22:43:08] [debug] [SeggerBackend] - read_access_port_register
[2024-Mar-07 22:43:08] [debug] [SeggerBackend] - ---just_read_access_port_register
[2024-Mar-07 22:43:08] [debug] [SeggerBackend] - ---just_select_access_port_register
[2024-Mar-07 22:43:08] [debug] [SeggerBackend] - Select AP 1, DP Bank 0, AP Bank 15
[2024-Mar-07 22:43:08] [trace] [  JLink] - JLINK_CORESIGHT_WriteAPDPReg(DP reg 0x02, 0x010000F0)  
[2024-Mar-07 22:43:08] [trace] [  JLink] - - 0.187ms returns 0  
[2024-Mar-07 22:43:08] [trace] [  JLink] - JLINK_HasError()  
[2024-Mar-07 22:43:08] [trace] [  JLink] - JLINK_CORESIGHT_ReadAPDPReg(AP reg 0x03)  
[2024-Mar-07 22:43:08] [trace] [  JLink] - Value=0x02880000
[2024-Mar-07 22:43:08] [trace] [  JLink] - - 0.226ms returns 0  
[2024-Mar-07 22:43:08] [trace] [  JLink] - JLINK_HasError()  
[2024-Mar-07 22:43:08] [debug] [SeggerBackend] - read_access_port_register
[2024-Mar-07 22:43:08] [debug] [SeggerBackend] - ---just_read_access_port_register
[2024-Mar-07 22:43:08] [debug] [SeggerBackend] - ---just_select_access_port_register
[2024-Mar-07 22:43:08] [trace] [  JLink] - JLINK_CORESIGHT_ReadAPDPReg(AP reg 0x03)  
[2024-Mar-07 22:43:08] [trace] [  JLink] - Value=0x02880000
[2024-Mar-07 22:43:08] [trace] [  JLink] - - 0.216ms returns 0  
[2024-Mar-07 22:43:08] [trace] [  JLink] - JLINK_HasError()  
[2024-Mar-07 22:43:08] [debug] [SeggerBackend] - read_access_port_register
[2024-Mar-07 22:43:08] [debug] [SeggerBackend] - ---just_read_access_port_register
[2024-Mar-07 22:43:08] [debug] [SeggerBackend] - ---just_select_access_port_register
[2024-Mar-07 22:43:08] [trace] [  JLink] - JLINK_CORESIGHT_ReadAPDPReg(AP reg 0x03)  
[2024-Mar-07 22:43:08] [trace] [  JLink] - Value=0x02880000
[2024-Mar-07 22:43:08] [trace] [  JLink] - - 0.208ms returns 0  
[2024-Mar-07 22:43:08] [trace] [  JLink] - JLINK_HasError()  
[2024-Mar-07 22:43:08] [debug] [SeggerBackend] - read_access_port_register
[2024-Mar-07 22:43:08] [debug] [SeggerBackend] - ---just_read_access_port_register
[2024-Mar-07 22:43:08] [debug] [SeggerBackend] - ---just_select_access_port_register
[2024-Mar-07 22:43:08] [trace] [  JLink] - JLINK_CORESIGHT_ReadAPDPReg(AP reg 0x03)  
[2024-Mar-07 22:43:08] [trace] [  JLink] - Value=0x02880000
[2024-Mar-07 22:43:08] [trace] [  JLink] - - 0.178ms returns 0  
[2024-Mar-07 22:43:08] [trace] [  JLink] - JLINK_HasError()  
[2024-Mar-07 22:43:08] [debug] [SeggerBackend] - write_access_port_register
[2024-Mar-07 22:43:08] [debug] [SeggerBackend] - ---just_write_access_port_register
[2024-Mar-07 22:43:08] [debug] [SeggerBackend] - ---just_select_access_port_register
[2024-Mar-07 22:43:08] [debug] [SeggerBackend] - Select AP 1, DP Bank 0, AP Bank 0
[2024-Mar-07 22:43:08] [trace] [  JLink] - JLINK_CORESIGHT_WriteAPDPReg(DP reg 0x02, 0x01000000)  
[2024-Mar-07 22:43:08] [trace] [  JLink] - - 0.158ms returns 0  
[2024-Mar-07 22:43:08] [trace] [  JLink] - JLINK_HasError()  
[2024-Mar-07 22:43:08] [trace] [  JLink] - JLINK_CORESIGHT_WriteAPDPReg(AP reg 0x00, 0x00000001)  
[2024-Mar-07 22:43:08] [trace] [  JLink] - - 0.156ms returns 0  
[2024-Mar-07 22:43:08] [trace] [  JLink] - JLINK_HasError()  
[2024-Mar-07 22:43:08] [debug] [SeggerBackend] - write_access_port_register
[2024-Mar-07 22:43:08] [debug] [SeggerBackend] - ---just_write_access_port_register
[2024-Mar-07 22:43:08] [debug] [SeggerBackend] - ---just_select_access_port_register
[2024-Mar-07 22:43:08] [trace] [  JLink] - JLINK_CORESIGHT_WriteAPDPReg(AP reg 0x00, 0x00000000)  
[2024-Mar-07 22:43:08] [trace] [  JLink] - - 0.234ms returns 0  
[2024-Mar-07 22:43:08] [trace] [  JLink] - JLINK_HasError()  
[2024-Mar-07 22:43:08] [debug] [SeggerBackend] - write_access_port_register
[2024-Mar-07 22:43:08] [debug] [SeggerBackend] - ---just_write_access_port_register
[2024-Mar-07 22:43:08] [debug] [SeggerBackend] - ---just_select_access_port_register
[2024-Mar-07 22:43:08] [trace] [  JLink] - JLINK_CORESIGHT_WriteAPDPReg(AP reg 0x01, 0x00000000)  
[2024-Mar-07 22:43:08] [trace] [  JLink] - - 0.154ms returns 0  
[2024-Mar-07 22:43:08] [trace] [  JLink] - JLINK_HasError()  
[2024-Mar-07 22:43:08] [debug] [  nRF52] - Just_readback_status
[2024-Mar-07 22:43:08] [debug] [  nRF52] - Just_is_ctrl_ap_available
[2024-Mar-07 22:43:08] [debug] [SeggerBackend] - read_access_port_register
[2024-Mar-07 22:43:08] [debug] [SeggerBackend] - ---just_read_access_port_register
[2024-Mar-07 22:43:08] [debug] [SeggerBackend] - ---just_select_access_port_register
[2024-Mar-07 22:43:08] [debug] [SeggerBackend] - Select AP 1, DP Bank 0, AP Bank 15
[2024-Mar-07 22:43:08] [trace] [  JLink] - JLINK_CORESIGHT_WriteAPDPReg(DP reg 0x02, 0x010000F0)  
[2024-Mar-07 22:43:08] [trace] [  JLink] - - 0.222ms returns 0  
[2024-Mar-07 22:43:08] [trace] [  JLink] - JLINK_HasError()  
[2024-Mar-07 22:43:08] [trace] [  JLink] - JLINK_CORESIGHT_ReadAPDPReg(AP reg 0x03)  
[2024-Mar-07 22:43:08] [trace] [  JLink] - Value=0x02880000
[2024-Mar-07 22:43:08] [trace] [  JLink] - - 0.172ms returns 0  
[2024-Mar-07 22:43:08] [trace] [  JLink] - JLINK_HasError()  
[2024-Mar-07 22:43:08] [debug] [SeggerBackend] - read_access_port_register
[2024-Mar-07 22:43:08] [debug] [SeggerBackend] - ---just_read_access_port_register
[2024-Mar-07 22:43:08] [debug] [SeggerBackend] - ---just_select_access_port_register
[2024-Mar-07 22:43:08] [trace] [  JLink] - JLINK_CORESIGHT_ReadAPDPReg(AP reg 0x03)  
[2024-Mar-07 22:43:08] [trace] [  JLink] - Value=0x02880000
[2024-Mar-07 22:43:08] [trace] [  JLink] - - 0.203ms returns 0  
[2024-Mar-07 22:43:08] [trace] [  JLink] - JLINK_HasError()  
[2024-Mar-07 22:43:08] [debug] [SeggerBackend] - read_access_port_register
[2024-Mar-07 22:43:08] [debug] [SeggerBackend] - ---just_read_access_port_register
[2024-Mar-07 22:43:08] [debug] [SeggerBackend] - ---just_select_access_port_register
[2024-Mar-07 22:43:08] [trace] [  JLink] - JLINK_CORESIGHT_ReadAPDPReg(AP reg 0x03)  
[2024-Mar-07 22:43:08] [trace] [  JLink] - Value=0x02880000
[2024-Mar-07 22:43:08] [trace] [  JLink] - - 0.255ms returns 0  
[2024-Mar-07 22:43:08] [trace] [  JLink] - JLINK_HasError()  
[2024-Mar-07 22:43:08] [debug] [SeggerBackend] - read_access_port_register
[2024-Mar-07 22:43:08] [debug] [SeggerBackend] - ---just_read_access_port_register
[2024-Mar-07 22:43:08] [debug] [SeggerBackend] - ---just_select_access_port_register
[2024-Mar-07 22:43:08] [trace] [  JLink] - JLINK_CORESIGHT_ReadAPDPReg(AP reg 0x03)  
[2024-Mar-07 22:43:08] [trace] [  JLink] - Value=0x02880000
[2024-Mar-07 22:43:08] [trace] [  JLink] - - 0.205ms returns 0  
[2024-Mar-07 22:43:08] [trace] [  JLink] - JLINK_HasError()  
[2024-Mar-07 22:43:08] [debug] [SeggerBackend] - read_access_port_register
[2024-Mar-07 22:43:08] [debug] [SeggerBackend] - ---just_read_access_port_register
[2024-Mar-07 22:43:08] [debug] [SeggerBackend] - ---just_select_access_port_register
[2024-Mar-07 22:43:08] [debug] [SeggerBackend] - Select AP 1, DP Bank 0, AP Bank 0
[2024-Mar-07 22:43:08] [trace] [  JLink] - JLINK_CORESIGHT_WriteAPDPReg(DP reg 0x02, 0x01000000)  
[2024-Mar-07 22:43:08] [trace] [  JLink] - - 0.137ms returns 0  
[2024-Mar-07 22:43:08] [trace] [  JLink] - JLINK_HasError()  
[2024-Mar-07 22:43:08] [trace] [  JLink] - JLINK_CORESIGHT_ReadAPDPReg(AP reg 0x03)  
[2024-Mar-07 22:43:08] [trace] [  JLink] - Value=0x00000001
[2024-Mar-07 22:43:08] [trace] [  JLink] - - 0.169ms returns 0  
[2024-Mar-07 22:43:08] [trace] [  JLink] - JLINK_HasError()  
[2024-Mar-07 22:43:08] [debug] [SeggerBackend] - read_access_port_register
[2024-Mar-07 22:43:08] [debug] [SeggerBackend] - ---just_read_access_port_register
[2024-Mar-07 22:43:08] [debug] [SeggerBackend] - ---just_select_access_port_register
[2024-Mar-07 22:43:08] [trace] [  JLink] - JLINK_CORESIGHT_ReadAPDPReg(AP reg 0x03)  
[2024-Mar-07 22:43:08] [trace] [  JLink] - Value=0x00000001
[2024-Mar-07 22:43:08] [trace] [  JLink] - - 0.185ms returns 0  
[2024-Mar-07 22:43:08] [trace] [  JLink] - JLINK_HasError()  
[2024-Mar-07 22:43:08] [debug] [SeggerBackend] - read_access_port_register
[2024-Mar-07 22:43:08] [debug] [SeggerBackend] - ---just_read_access_port_register
[2024-Mar-07 22:43:08] [debug] [SeggerBackend] - ---just_select_access_port_register
[2024-Mar-07 22:43:08] [trace] [  JLink] - JLINK_CORESIGHT_ReadAPDPReg(AP reg 0x03)  
[2024-Mar-07 22:43:08] [trace] [  JLink] - Value=0x00000001
[2024-Mar-07 22:43:08] [trace] [  JLink] - - 0.257ms returns 0  
[2024-Mar-07 22:43:08] [trace] [  JLink] - JLINK_HasError()  
[2024-Mar-07 22:43:08] [debug] [SeggerBackend] - read_access_port_register
[2024-Mar-07 22:43:08] [debug] [SeggerBackend] - ---just_read_access_port_register
[2024-Mar-07 22:43:08] [debug] [SeggerBackend] - ---just_select_access_port_register
[2024-Mar-07 22:43:08] [trace] [  JLink] - JLINK_CORESIGHT_ReadAPDPReg(AP reg 0x03)  
[2024-Mar-07 22:43:08] [trace] [  JLink] - Value=0x00000001
[2024-Mar-07 22:43:08] [trace] [  JLink] - - 0.190ms returns 0  
[2024-Mar-07 22:43:08] [trace] [  JLink] - JLINK_HasError()  
[2024-Mar-07 22:43:08] [ info] [  nRF52] - Protection status read as NONE
[2024-Mar-07 22:43:08] [debug] [  nRF52] - Just_debug_reset
[2024-Mar-07 22:43:08] [debug] [  nRF52] - Just_is_ctrl_ap_available
[2024-Mar-07 22:43:08] [debug] [SeggerBackend] - read_access_port_register
[2024-Mar-07 22:43:08] [debug] [SeggerBackend] - ---just_read_access_port_register
[2024-Mar-07 22:43:08] [debug] [SeggerBackend] - ---just_select_access_port_register
[2024-Mar-07 22:43:08] [debug] [SeggerBackend] - Select AP 1, DP Bank 0, AP Bank 15
[2024-Mar-07 22:43:08] [trace] [  JLink] - JLINK_CORESIGHT_WriteAPDPReg(DP reg 0x02, 0x010000F0)  
[2024-Mar-07 22:43:08] [trace] [  JLink] - - 0.153ms returns 0  
[2024-Mar-07 22:43:08] [trace] [  JLink] - JLINK_HasError()  
[2024-Mar-07 22:43:08] [trace] [  JLink] - JLINK_CORESIGHT_ReadAPDPReg(AP reg 0x03)  
[2024-Mar-07 22:43:08] [trace] [  JLink] - Value=0x02880000
[2024-Mar-07 22:43:08] [trace] [  JLink] - - 0.179ms returns 0  
[2024-Mar-07 22:43:08] [trace] [  JLink] - JLINK_HasError()  
[2024-Mar-07 22:43:08] [debug] [SeggerBackend] - read_access_port_register
[2024-Mar-07 22:43:08] [debug] [SeggerBackend] - ---just_read_access_port_register
[2024-Mar-07 22:43:08] [debug] [SeggerBackend] - ---just_select_access_port_register
[2024-Mar-07 22:43:08] [trace] [  JLink] - JLINK_CORESIGHT_ReadAPDPReg(AP reg 0x03)  
[2024-Mar-07 22:43:08] [trace] [  JLink] - Value=0x02880000
[2024-Mar-07 22:43:08] [trace] [  JLink] - - 0.195ms returns 0  
[2024-Mar-07 22:43:08] [trace] [  JLink] - JLINK_HasError()  
[2024-Mar-07 22:43:08] [debug] [SeggerBackend] - read_access_port_register
[2024-Mar-07 22:43:08] [debug] [SeggerBackend] - ---just_read_access_port_register
[2024-Mar-07 22:43:08] [debug] [SeggerBackend] - ---just_select_access_port_register
[2024-Mar-07 22:43:08] [trace] [  JLink] - JLINK_CORESIGHT_ReadAPDPReg(AP reg 0x03)  
[2024-Mar-07 22:43:08] [trace] [  JLink] - Value=0x02880000
[2024-Mar-07 22:43:08] [trace] [  JLink] - - 0.231ms returns 0  
[2024-Mar-07 22:43:08] [trace] [  JLink] - JLINK_HasError()  
[2024-Mar-07 22:43:08] [debug] [SeggerBackend] - read_access_port_register
[2024-Mar-07 22:43:08] [debug] [SeggerBackend] - ---just_read_access_port_register
[2024-Mar-07 22:43:08] [debug] [SeggerBackend] - ---just_select_access_port_register
[2024-Mar-07 22:43:08] [trace] [  JLink] - JLINK_CORESIGHT_ReadAPDPReg(AP reg 0x03)  
[2024-Mar-07 22:43:08] [trace] [  JLink] - Value=0x02880000
[2024-Mar-07 22:43:08] [trace] [  JLink] - - 0.217ms returns 0  
[2024-Mar-07 22:43:08] [trace] [  JLink] - JLINK_HasError()  
[2024-Mar-07 22:43:08] [debug] [SeggerBackend] - write_access_port_register
[2024-Mar-07 22:43:08] [debug] [SeggerBackend] - ---just_write_access_port_register
[2024-Mar-07 22:43:08] [debug] [SeggerBackend] - ---just_select_access_port_register
[2024-Mar-07 22:43:08] [debug] [SeggerBackend] - Select AP 1, DP Bank 0, AP Bank 0
[2024-Mar-07 22:43:08] [trace] [  JLink] - JLINK_CORESIGHT_WriteAPDPReg(DP reg 0x02, 0x01000000)  
[2024-Mar-07 22:43:08] [trace] [  JLink] - - 0.159ms returns 0  
[2024-Mar-07 22:43:08] [trace] [  JLink] - JLINK_HasError()  
[2024-Mar-07 22:43:08] [trace] [  JLink] - JLINK_CORESIGHT_WriteAPDPReg(AP reg 0x00, 0x00000001)  
[2024-Mar-07 22:43:08] [trace] [  JLink] - - 0.178ms returns 0  
[2024-Mar-07 22:43:08] [trace] [  JLink] - JLINK_HasError()  
[2024-Mar-07 22:43:08] [debug] [SeggerBackend] - write_access_port_register
[2024-Mar-07 22:43:08] [debug] [SeggerBackend] - ---just_write_access_port_register
[2024-Mar-07 22:43:08] [debug] [SeggerBackend] - ---just_select_access_port_register
[2024-Mar-07 22:43:08] [trace] [  JLink] - JLINK_CORESIGHT_WriteAPDPReg(AP reg 0x00, 0x00000000)  
[2024-Mar-07 22:43:08] [trace] [  JLink] - - 0.192ms returns 0  
[2024-Mar-07 22:43:08] [trace] [  JLink] - JLINK_HasError()  
[2024-Mar-07 22:43:08] [debug] [  nRF52] - Just_read_device_version
[2024-Mar-07 22:43:08] [debug] [  nRF52] - Just_readback_status
[2024-Mar-07 22:43:08] [debug] [  nRF52] - Just_is_ctrl_ap_available
[2024-Mar-07 22:43:08] [debug] [SeggerBackend] - read_access_port_register
[2024-Mar-07 22:43:08] [debug] [SeggerBackend] - ---just_read_access_port_register
[2024-Mar-07 22:43:08] [debug] [SeggerBackend] - ---just_select_access_port_register
[2024-Mar-07 22:43:08] [debug] [SeggerBackend] - Select AP 1, DP Bank 0, AP Bank 15
[2024-Mar-07 22:43:08] [trace] [  JLink] - JLINK_CORESIGHT_WriteAPDPReg(DP reg 0x02, 0x010000F0)  
[2024-Mar-07 22:43:08] [trace] [  JLink] - - 0.174ms returns 0  
[2024-Mar-07 22:43:08] [trace] [  JLink] - JLINK_HasError()  
[2024-Mar-07 22:43:08] [trace] [  JLink] - JLINK_CORESIGHT_ReadAPDPReg(AP reg 0x03)  
[2024-Mar-07 22:43:08] [trace] [  JLink] - Value=0x02880000
[2024-Mar-07 22:43:08] [trace] [  JLink] - - 0.190ms returns 0  
[2024-Mar-07 22:43:08] [trace] [  JLink] - JLINK_HasError()  
[2024-Mar-07 22:43:08] [debug] [SeggerBackend] - read_access_port_register
[2024-Mar-07 22:43:08] [debug] [SeggerBackend] - ---just_read_access_port_register
[2024-Mar-07 22:43:08] [debug] [SeggerBackend] - ---just_select_access_port_register
[2024-Mar-07 22:43:08] [trace] [  JLink] - JLINK_CORESIGHT_ReadAPDPReg(AP reg 0x03)  
[2024-Mar-07 22:43:08] [trace] [  JLink] - Value=0x02880000
[2024-Mar-07 22:43:08] [trace] [  JLink] - - 0.190ms returns 0  
[2024-Mar-07 22:43:08] [trace] [  JLink] - JLINK_HasError()  
[2024-Mar-07 22:43:08] [debug] [SeggerBackend] - read_access_port_register
[2024-Mar-07 22:43:08] [debug] [SeggerBackend] - ---just_read_access_port_register
[2024-Mar-07 22:43:08] [debug] [SeggerBackend] - ---just_select_access_port_register
[2024-Mar-07 22:43:08] [trace] [  JLink] - JLINK_CORESIGHT_ReadAPDPReg(AP reg 0x03)  
[2024-Mar-07 22:43:08] [trace] [  JLink] - Value=0x02880000
[2024-Mar-07 22:43:08] [trace] [  JLink] - - 0.204ms returns 0  
[2024-Mar-07 22:43:08] [trace] [  JLink] - JLINK_HasError()  
[2024-Mar-07 22:43:08] [debug] [SeggerBackend] - read_access_port_register
[2024-Mar-07 22:43:08] [debug] [SeggerBackend] - ---just_read_access_port_register
[2024-Mar-07 22:43:08] [debug] [SeggerBackend] - ---just_select_access_port_register
[2024-Mar-07 22:43:08] [trace] [  JLink] - JLINK_CORESIGHT_ReadAPDPReg(AP reg 0x03)  
[2024-Mar-07 22:43:08] [trace] [  JLink] - Value=0x02880000
[2024-Mar-07 22:43:08] [trace] [  JLink] - - 0.182ms returns 0  
[2024-Mar-07 22:43:08] [trace] [  JLink] - JLINK_HasError()  
[2024-Mar-07 22:43:08] [debug] [SeggerBackend] - read_access_port_register
[2024-Mar-07 22:43:08] [debug] [SeggerBackend] - ---just_read_access_port_register
[2024-Mar-07 22:43:08] [debug] [SeggerBackend] - ---just_select_access_port_register
[2024-Mar-07 22:43:08] [debug] [SeggerBackend] - Select AP 1, DP Bank 0, AP Bank 0
[2024-Mar-07 22:43:08] [trace] [  JLink] - JLINK_CORESIGHT_WriteAPDPReg(DP reg 0x02, 0x01000000)  
[2024-Mar-07 22:43:08] [trace] [  JLink] - - 0.141ms returns 0  
[2024-Mar-07 22:43:08] [trace] [  JLink] - JLINK_HasError()  
[2024-Mar-07 22:43:08] [trace] [  JLink] - JLINK_CORESIGHT_ReadAPDPReg(AP reg 0x03)  
[2024-Mar-07 22:43:08] [trace] [  JLink] - Value=0x00000001
[2024-Mar-07 22:43:08] [trace] [  JLink] - - 0.168ms returns 0  
[2024-Mar-07 22:43:08] [trace] [  JLink] - JLINK_HasError()  
[2024-Mar-07 22:43:08] [debug] [SeggerBackend] - read_access_port_register
[2024-Mar-07 22:43:08] [debug] [SeggerBackend] - ---just_read_access_port_register
[2024-Mar-07 22:43:08] [debug] [SeggerBackend] - ---just_select_access_port_register
[2024-Mar-07 22:43:08] [trace] [  JLink] - JLINK_CORESIGHT_ReadAPDPReg(AP reg 0x03)  
[2024-Mar-07 22:43:08] [trace] [  JLink] - Value=0x00000001
[2024-Mar-07 22:43:08] [trace] [  JLink] - - 0.209ms returns 0  
[2024-Mar-07 22:43:08] [trace] [  JLink] - JLINK_HasError()  
[2024-Mar-07 22:43:08] [debug] [SeggerBackend] - read_access_port_register
[2024-Mar-07 22:43:08] [debug] [SeggerBackend] - ---just_read_access_port_register
[2024-Mar-07 22:43:08] [debug] [SeggerBackend] - ---just_select_access_port_register
[2024-Mar-07 22:43:08] [trace] [  JLink] - JLINK_CORESIGHT_ReadAPDPReg(AP reg 0x03)  
[2024-Mar-07 22:43:08] [trace] [  JLink] - Value=0x00000001
[2024-Mar-07 22:43:08] [trace] [  JLink] - - 0.179ms returns 0  
[2024-Mar-07 22:43:08] [trace] [  JLink] - JLINK_HasError()  
[2024-Mar-07 22:43:08] [debug] [SeggerBackend] - read_access_port_register
[2024-Mar-07 22:43:08] [debug] [SeggerBackend] - ---just_read_access_port_register
[2024-Mar-07 22:43:08] [debug] [SeggerBackend] - ---just_select_access_port_register
[2024-Mar-07 22:43:08] [trace] [  JLink] - JLINK_CORESIGHT_ReadAPDPReg(AP reg 0x03)  
[2024-Mar-07 22:43:08] [trace] [  JLink] - Value=0x00000001
[2024-Mar-07 22:43:08] [trace] [  JLink] - - 0.214ms returns 0  
[2024-Mar-07 22:43:08] [trace] [  JLink] - JLINK_HasError()  
[2024-Mar-07 22:43:08] [ info] [  nRF52] - Protection status read as NONE
[2024-Mar-07 22:43:08] [debug] [SeggerBackend] - read_u32
[2024-Mar-07 22:43:08] [debug] [SeggerBackend] - ---just_connect_to_device
[2024-Mar-07 22:43:08] [debug] [SeggerBackend] - is_connected_to_device
[2024-Mar-07 22:43:08] [debug] [SeggerBackend] - ---set_coresight_ahb_ap_index
[2024-Mar-07 22:43:08] [trace] [  JLink] - JLINK_ExecCommand("CORESIGHT_SetIndexAHBAPToUse = 0", ...).   
[2024-Mar-07 22:43:08] [trace] [  JLink] - - 0.001ms returns 0x00  
[2024-Mar-07 22:43:08] [trace] [  JLink] - JLINK_HasError()  
[2024-Mar-07 22:43:08] [trace] [  JLink] - JLINK_ExecCommand("device = nRF52", ...).   
[2024-Mar-07 22:43:08] [trace] [  JLink] - Device "NRF52" selected.
[2024-Mar-07 22:43:08] [trace] [  JLink] - Device "NRF52" selected.
[2024-Mar-07 22:43:08] [trace] [  JLink] - - 0.631ms returns 0x00  
[2024-Mar-07 22:43:08] [trace] [  JLink] - JLINK_HasError()  
[2024-Mar-07 22:43:08] [trace] [  JLink] - JLINK_Connect()  
[2024-Mar-07 22:43:08] [trace] [  JLink] - InitTarget() start
[2024-Mar-07 22:43:08] [trace] [  JLink] - InitTarget() start
[2024-Mar-07 22:43:08] [trace] [  JLink] -  J-Link Script File: Executing InitTarget() 
[2024-Mar-07 22:43:08] [trace] [  JLink] - InitTarget() end - Took 1.48ms
[2024-Mar-07 22:43:08] [trace] [  JLink] - InitTarget() end - Took 1.48ms
[2024-Mar-07 22:43:08] [trace] [  JLink] - Found SW-DP with ID 0x2BA01477
[2024-Mar-07 22:43:08] [trace] [  JLink] - Found SW-DP with ID 0x2BA01477
[2024-Mar-07 22:43:08] [trace] [  JLink] - DPIDR: 0x2BA01477
[2024-Mar-07 22:43:08] [trace] [  JLink] - DPIDR: 0x2BA01477
[2024-Mar-07 22:43:08] [trace] [  JLink] - CoreSight SoC-400 or earlier
[2024-Mar-07 22:43:08] [trace] [  JLink] - CoreSight SoC-400 or earlier
[2024-Mar-07 22:43:08] [trace] [  JLink] - AP map detection skipped. Manually configured AP map found.
[2024-Mar-07 22:43:08] [trace] [  JLink] - AP map detection skipped. Manually configured AP map found.
[2024-Mar-07 22:43:08] [trace] [  JLink] - AP[0]: AHB-AP (IDR: Not set)
[2024-Mar-07 22:43:08] [trace] [  JLink] - AP[0]: AHB-AP (IDR: Not set)
[2024-Mar-07 22:43:08] [trace] [  JLink] - AP[0]: Core found
[2024-Mar-07 22:43:08] [trace] [  JLink] - AP[0]: Core found
[2024-Mar-07 22:43:08] [trace] [  JLink] - AP[0]: AHB-AP ROM base: 0xE00FF000
[2024-Mar-07 22:43:08] [trace] [  JLink] - AP[0]: AHB-AP ROM base: 0xE00FF000
[2024-Mar-07 22:43:08] [trace] [  JLink] - CPUID register: 0x410FC241. Implementer code: 0x41 (ARM)
[2024-Mar-07 22:43:08] [trace] [  JLink] - CPUID register: 0x410FC241. Implementer code: 0x41 (ARM)
[2024-Mar-07 22:43:08] [trace] [  JLink] - Found Cortex-M4 r0p1, Little endian.
[2024-Mar-07 22:43:08] [trace] [  JLink] - Found Cortex-M4 r0p1, Little endian.
[2024-Mar-07 22:43:08] [trace] [  JLink] - -- Max. mem block: 0x0003C870
[2024-Mar-07 22:43:08] [trace] [  JLink] - Cortex-M: The connected J-Link (S/N 1050205916) uses an old firmware module: V1 (current is 2)
[2024-Mar-07 22:43:08] [trace] [  JLink] - Cortex-M: The connected J-Link (S/N 1050205916) uses an old firmware module: V1 (current is 2)
[2024-Mar-07 22:43:08] [trace] [  JLink] - CPU_ReadMem(4 bytes @ 0xE000EDF0)
[2024-Mar-07 22:43:08] [trace] [  JLink] - CPU_WriteMem(4 bytes @ 0xE000EDF0)
[2024-Mar-07 22:43:08] [trace] [  JLink] - CPU_ReadMem(4 bytes @ 0xE0002000)
[2024-Mar-07 22:43:08] [trace] [  JLink] - FPUnit: 6 code (BP) slots and 2 literal slots
[2024-Mar-07 22:43:08] [trace] [  JLink] - FPUnit: 6 code (BP) slots and 2 literal slots
[2024-Mar-07 22:43:08] [trace] [  JLink] - CPU_ReadMem(4 bytes @ 0xE000EDFC)
[2024-Mar-07 22:43:08] [trace] [  JLink] - CPU_WriteMem(4 bytes @ 0xE000EDFC)
[2024-Mar-07 22:43:08] [trace] [  JLink] - CPU_ReadMem(4 bytes @ 0xE0001000)
[2024-Mar-07 22:43:08] [trace] [  JLink] - CPU_WriteMem(4 bytes @ 0xE0001000)
[2024-Mar-07 22:43:08] [trace] [  JLink] - CPU_ReadMem(4 bytes @ 0xE000ED88)
[2024-Mar-07 22:43:08] [trace] [  JLink] - CPU_WriteMem(4 bytes @ 0xE000ED88)
[2024-Mar-07 22:43:08] [trace] [  JLink] - CPU_ReadMem(4 bytes @ 0xE000ED88)
[2024-Mar-07 22:43:08] [trace] [  JLink] - CPU_WriteMem(4 bytes @ 0xE000ED88)
[2024-Mar-07 22:43:08] [trace] [  JLink] - CoreSight components:
[2024-Mar-07 22:43:08] [trace] [  JLink] - CoreSight components:
[2024-Mar-07 22:43:08] [trace] [  JLink] - ROMTbl[0] @ E00FF000
[2024-Mar-07 22:43:08] [trace] [  JLink] - ROMTbl[0] @ E00FF000
[2024-Mar-07 22:43:08] [trace] [  JLink] - CPU_ReadMem(64 bytes @ 0xE00FF000)
[2024-Mar-07 22:43:08] [trace] [  JLink] - CPU_ReadMem(32 bytes @ 0xE000EFE0)
[2024-Mar-07 22:43:08] [trace] [  JLink] - [0][0]: E000E000 CID B105E00D PID 000BB00C SCS-M7
[2024-Mar-07 22:43:08] [trace] [  JLink] - [0][0]: E000E000 CID B105E00D PID 000BB00C SCS-M7
[2024-Mar-07 22:43:08] [trace] [  JLink] - CPU_ReadMem(32 bytes @ 0xE0001FE0)
[2024-Mar-07 22:43:08] [trace] [  JLink] - [0][1]: E0001000 CID B105E00D PID 003BB002 DWT
[2024-Mar-07 22:43:08] [trace] [  JLink] - [0][1]: E0001000 CID B105E00D PID 003BB002 DWT
[2024-Mar-07 22:43:08] [trace] [  JLink] - CPU_ReadMem(32 bytes @ 0xE0002FE0)
[2024-Mar-07 22:43:08] [trace] [  JLink] - [0][2]: E0002000 CID B105E00D PID 002BB003 FPB
[2024-Mar-07 22:43:08] [trace] [  JLink] - [0][2]: E0002000 CID B105E00D PID 002BB003 FPB
[2024-Mar-07 22:43:08] [trace] [  JLink] - CPU_ReadMem(32 bytes @ 0xE0000FE0)
[2024-Mar-07 22:43:08] [trace] [  JLink] - [0][3]: E0000000 CID B105E00D PID 003BB001 ITM
[2024-Mar-07 22:43:08] [trace] [  JLink] - [0][3]: E0000000 CID B105E00D PID 003BB001 ITM
[2024-Mar-07 22:43:08] [trace] [  JLink] - CPU_ReadMem(32 bytes @ 0xE0040FE0)
[2024-Mar-07 22:43:08] [trace] [  JLink] - [0][4]: E0040000 CID B105900D PID 000BB9A1 TPIU
[2024-Mar-07 22:43:08] [trace] [  JLink] - [0][4]: E0040000 CID B105900D PID 000BB9A1 TPIU
[2024-Mar-07 22:43:08] [trace] [  JLink] - CPU_ReadMem(32 bytes @ 0xE0041FE0)
[2024-Mar-07 22:43:08] [trace] [  JLink] - [0][5]: E0041000 CID B105900D PID 000BB925 ETM
[2024-Mar-07 22:43:08] [trace] [  JLink] - [0][5]: E0041000 CID B105900D PID 000BB925 ETM
[2024-Mar-07 22:43:08] [trace] [  JLink] - - 12.632ms returns 0x00  
[2024-Mar-07 22:43:08] [trace] [  JLink] - JLINK_HasError()  
[2024-Mar-07 22:43:08] [trace] [  JLink] - JLINK_CORE_GetFound()  
[2024-Mar-07 22:43:08] [trace] [  JLink] - - 0.003ms returns 0xE0000FF  
[2024-Mar-07 22:43:08] [debug] [SeggerBackend] - ---just_read_u32
[2024-Mar-07 22:43:08] [debug] [SeggerBackend] - ---just_invalidate_cache
[2024-Mar-07 22:43:08] [trace] [  JLink] - JLINK_ExecCommand("InvalidateCache", ...).   
[2024-Mar-07 22:43:08] [trace] [  JLink] - - 0.005ms returns 0x00  
[2024-Mar-07 22:43:08] [trace] [  JLink] - JLINK_HasError()  
[2024-Mar-07 22:43:08] [trace] [  JLink] - JLINK_ReadMemU32(0x10000130, 0x1 Items)  
[2024-Mar-07 22:43:08] [trace] [  JLink] - CPU_ReadMem(4 bytes @ 0x10000130)
[2024-Mar-07 22:43:08] [trace] [  JLink] - Data:  08 00 00 00
[2024-Mar-07 22:43:08] [trace] [  JLink] - - 0.289ms returns 1 (0x1)  
[2024-Mar-07 22:43:08] [trace] [  JLink] - JLINK_HasError()  
[2024-Mar-07 22:43:08] [debug] [SeggerBackend] - read_u32
[2024-Mar-07 22:43:08] [debug] [SeggerBackend] - ---just_connect_to_device
[2024-Mar-07 22:43:08] [debug] [SeggerBackend] - is_connected_to_device
[2024-Mar-07 22:43:08] [debug] [SeggerBackend] - ---just_read_u32
[2024-Mar-07 22:43:08] [debug] [SeggerBackend] - ---just_invalidate_cache
[2024-Mar-07 22:43:08] [trace] [  JLink] - JLINK_ExecCommand("InvalidateCache", ...).   
[2024-Mar-07 22:43:08] [trace] [  JLink] - - 0.001ms returns 0x00  
[2024-Mar-07 22:43:08] [trace] [  JLink] - JLINK_HasError()  
[2024-Mar-07 22:43:08] [trace] [  JLink] - JLINK_ReadMemU32(0x10000134, 0x1 Items)  
[2024-Mar-07 22:43:08] [trace] [  JLink] - CPU_ReadMem(4 bytes @ 0x10000134)
[2024-Mar-07 22:43:08] [trace] [  JLink] - Data:  05 00 00 00
[2024-Mar-07 22:43:08] [trace] [  JLink] - - 0.256ms returns 1 (0x1)  
[2024-Mar-07 22:43:08] [trace] [  JLink] - JLINK_HasError()  
[2024-Mar-07 22:43:08] [debug] [  nRF52] - Just_decode_device_version
[2024-Mar-07 22:43:08] [debug] [  nRF52] - Device identified as NRF52840_xxAA_REV3
[2024-Mar-07 22:43:08] [debug] [  nRF52] - write_approtect
[2024-Mar-07 22:43:08] [ info] [  nRF52] - Restoring UICR values to keep device unprotected.
[2024-Mar-07 22:43:08] [debug] [  nRF52] - Just_read_u32
[2024-Mar-07 22:43:08] [debug] [SeggerBackend] - read_u32
[2024-Mar-07 22:43:08] [debug] [SeggerBackend] - ---just_connect_to_device
[2024-Mar-07 22:43:08] [debug] [SeggerBackend] - is_connected_to_device
[2024-Mar-07 22:43:08] [debug] [SeggerBackend] - ---just_halt
[2024-Mar-07 22:43:08] [trace] [  JLink] - JLINK_Halt()  
[2024-Mar-07 22:43:08] [trace] [  JLink] - - 3.224ms returns 0x00  
[2024-Mar-07 22:43:08] [trace] [  JLink] - JLINK_HasError()  
[2024-Mar-07 22:43:08] [debug] [SeggerBackend] - ---just_read_u32
[2024-Mar-07 22:43:08] [debug] [SeggerBackend] - ---just_invalidate_cache
[2024-Mar-07 22:43:08] [trace] [  JLink] - JLINK_ExecCommand("InvalidateCache", ...).   
[2024-Mar-07 22:43:08] [trace] [  JLink] - - 0.003ms returns 0x00  
[2024-Mar-07 22:43:08] [trace] [  JLink] - JLINK_HasError()  
[2024-Mar-07 22:43:08] [trace] [  JLink] - JLINK_ReadMemU32(0x10001208, 0x1 Items)  
[2024-Mar-07 22:43:08] [trace] [  JLink] - CPU_ReadMem(64 bytes @ 0x10001200)
[2024-Mar-07 22:43:08] [trace] [  JLink] -  -- Updating C cache (64 bytes @ 0x10001200)
[2024-Mar-07 22:43:08] [trace] [  JLink] -  -- Read from C cache (4 bytes @ 0x10001208)
[2024-Mar-07 22:43:08] [trace] [  JLink] - Data:  FF FF FF FF
[2024-Mar-07 22:43:08] [trace] [  JLink] - - 0.817ms returns 1 (0x1)  
[2024-Mar-07 22:43:08] [trace] [  JLink] - JLINK_HasError()  
[2024-Mar-07 22:43:08] [debug] [  nRF52] - Just_write_u32
[2024-Mar-07 22:43:08] [debug] [SeggerBackend] - write_u32
[2024-Mar-07 22:43:08] [debug] [SeggerBackend] - ---just_connect_to_device
[2024-Mar-07 22:43:08] [debug] [SeggerBackend] - is_connected_to_device
[2024-Mar-07 22:43:08] [debug] [SeggerBackend] - ---just_halt
[2024-Mar-07 22:43:08] [trace] [  JLink] - JLINK_Halt()  
[2024-Mar-07 22:43:08] [trace] [  JLink] - - 0.277ms returns 0x00  
[2024-Mar-07 22:43:08] [trace] [  JLink] - JLINK_HasError()  
[2024-Mar-07 22:43:08] [debug] [SeggerBackend] - ---just_write_u32
[2024-Mar-07 22:43:08] [debug] [SeggerBackend] - ---just_write_debug_port_register
[2024-Mar-07 22:43:08] [debug] [SeggerBackend] - ---just_select_debug_port_register
[2024-Mar-07 22:43:08] [debug] [SeggerBackend] - Select AP 255, DP Bank 0, AP Bank 255
[2024-Mar-07 22:43:08] [trace] [  JLink] - JLINK_CORESIGHT_WriteAPDPReg(DP reg 0x02, 0x00000000)  
[2024-Mar-07 22:43:08] [trace] [  JLink] - - 0.142ms returns 0  
[2024-Mar-07 22:43:08] [trace] [  JLink] - JLINK_HasError()  
[2024-Mar-07 22:43:08] [trace] [  JLink] - JLINK_CORESIGHT_WriteAPDPReg(DP reg 0x02, 0x00000000)  
[2024-Mar-07 22:43:08] [trace] [  JLink] - - 0.138ms returns 0  
[2024-Mar-07 22:43:08] [trace] [  JLink] - JLINK_HasError()  
[2024-Mar-07 22:43:08] [debug] [  nRF52] - Just_nvmc_config_control
[2024-Mar-07 22:43:08] [debug] [SeggerBackend] - write_u32
[2024-Mar-07 22:43:08] [debug] [SeggerBackend] - ---just_connect_to_device
[2024-Mar-07 22:43:08] [debug] [SeggerBackend] - is_connected_to_device
[2024-Mar-07 22:43:08] [debug] [SeggerBackend] - ---just_write_u32
[2024-Mar-07 22:43:08] [debug] [SeggerBackend] - ---just_write_debug_port_register
[2024-Mar-07 22:43:08] [debug] [SeggerBackend] - ---just_select_debug_port_register
[2024-Mar-07 22:43:08] [debug] [SeggerBackend] - Select AP 255, DP Bank 0, AP Bank 255
[2024-Mar-07 22:43:08] [trace] [  JLink] - JLINK_CORESIGHT_WriteAPDPReg(DP reg 0x02, 0x00000000)  
[2024-Mar-07 22:43:08] [trace] [  JLink] - - 0.138ms returns 0  
[2024-Mar-07 22:43:08] [trace] [  JLink] - JLINK_HasError()  
[2024-Mar-07 22:43:08] [trace] [  JLink] - JLINK_CORESIGHT_WriteAPDPReg(DP reg 0x02, 0x00000000)  
[2024-Mar-07 22:43:08] [trace] [  JLink] - - 0.133ms returns 0  
[2024-Mar-07 22:43:08] [trace] [  JLink] - JLINK_HasError()  
[2024-Mar-07 22:43:08] [trace] [  JLink] - JLINK_WriteU32_64(0x4001E504, 0x00000001)  
[2024-Mar-07 22:43:08] [trace] [  JLink] - CPU_WriteMem(4 bytes @ 0x4001E504)
[2024-Mar-07 22:43:08] [trace] [  JLink] - - 0.741ms returns 0 (0x00000000)  
[2024-Mar-07 22:43:08] [trace] [  JLink] - JLINK_HasError()  
[2024-Mar-07 22:43:08] [debug] [  nRF52] - Just_nvmc_wait_for_ready
[2024-Mar-07 22:43:08] [debug] [SeggerBackend] - read_u32
[2024-Mar-07 22:43:08] [debug] [SeggerBackend] - ---just_connect_to_device
[2024-Mar-07 22:43:08] [debug] [SeggerBackend] - is_connected_to_device
[2024-Mar-07 22:43:08] [debug] [SeggerBackend] - ---just_read_u32
[2024-Mar-07 22:43:08] [debug] [SeggerBackend] - ---just_invalidate_cache
[2024-Mar-07 22:43:08] [trace] [  JLink] - JLINK_ExecCommand("InvalidateCache", ...).   
[2024-Mar-07 22:43:08] [trace] [  JLink] - - 0.003ms returns 0x00  
[2024-Mar-07 22:43:08] [trace] [  JLink] - JLINK_HasError()  
[2024-Mar-07 22:43:08] [trace] [  JLink] - JLINK_ReadMemU32(0x4001E400, 0x1 Items)  
[2024-Mar-07 22:43:08] [trace] [  JLink] - CPU_ReadMem(4 bytes @ 0x4001E400)
[2024-Mar-07 22:43:08] [trace] [  JLink] - Data:  01 00 00 00
